Circuit: * C:\Users\maboa\Desktop\Structured Electronic Design\Structured_Electronic_Design\Balanced single loop feedback stage (4)\cir\CompParallel.asc

Ignoring BSIM parameter XL
Ignoring BSIM parameter XW
Ignoring BSIM parameter XL
Ignoring BSIM parameter XW
ERROR: Node N004 is floating and connected to current source I2

Warning: Pd = 0 is less than W.
Warning: Ps = 0 is less than W.
Warning: Pd = 0 is less than W.
Warning: Ps = 0 is less than W.
Direct Newton iteration failed to find .op point.  (Use ".option noopiter" to skip.)
Starting Gmin stepping
Gmin = 10
Gmin = 1.07374
vernier = 0.5
vernier = 0.25
vernier = 0.125
vernier = 0.0625
vernier = 0.03125
vernier = 0.015625
vernier = 0.0078125
vernier = 0.00390625
vernier = 0.00195313
Gmin = 1.07374
vernier = 0.000976563
vernier = 0.000488281
Gmin = 0
Gmin stepping failed

Starting source stepping with srcstepmethod=0
Source Step = 3.0303%
Source Step = 33.3333%
Source Step = 63.6364%
Source Step = 93.9394%
Source stepping succeeded in finding the operating point.

Semiconductor Device Operating Points:
                        --- BSIM3 MOSFETS ---
Name:        m1          m4          m2          m5
Model:     c18nmos     c18nmos     c18pmos     c18pmos
Id:        3.62e-12    1.00e-06   -3.62e-12   -9.99e-07
Vgs:       1.32e+00    3.16e-01    7.79e+01    1.69e-04
Vds:       1.07e-10    9.00e-01   -1.80e+00   -7.78e+01
Vbs:       0.00e+00    0.00e+00    0.00e+00    0.00e+00
Vth:       4.81e-01    4.74e-01   -4.94e-01   -2.34e-01
Vdsat:     4.14e-01    3.86e-02   -4.04e-02   -4.04e-02
Gm:        2.85e-12    2.56e-05    0.00e+00    2.49e-05
Gds:       3.38e-02    6.18e-07    0.00e+00    1.02e-07
Gmb        8.55e-13    6.85e-05    0.00e+00    5.69e-06
Cbd:       0.00e+00    0.00e+00    0.00e+00    0.00e+00
Cbs:       0.00e+00    0.00e+00    0.00e+00    0.00e+00
Cgsov:     2.10e-14    2.10e-14    4.09e-14    4.09e-14
Cgdov:     2.10e-14    2.10e-14    4.09e-14    4.09e-14
Cgbov:     1.58e-19    1.58e-19    2.81e-19    2.81e-19
dQgdVgb:   8.18e-14    5.27e-14    1.53e-13    1.02e-13
dQgdVdb:  -3.96e-14   -2.10e-14   -4.09e-14   -4.09e-14
dQgdVsb:  -4.04e-14   -2.22e-14   -4.09e-14   -4.10e-14
dQddVgb:  -4.09e-14   -2.11e-14   -4.09e-14   -4.09e-14
dQddVdb:   4.23e-14    2.10e-14    4.09e-14    4.09e-14
dQddVsb:   3.62e-15    6.88e-16    0.00e+00    6.95e-17
dQbdVgb:  -1.08e-16   -1.04e-14   -7.09e-14   -2.06e-14
dQbdVdb:  -2.42e-14    3.04e-19    0.00e+00    5.06e-20
dQbdVsb:   1.22e-14   -1.36e-16    2.36e-18   -1.77e-17



Date: Sun Dec 06 22:59:34 2020
Total elapsed time: 0.340 seconds.

tnom = 27
temp = 27
method = trap
totiter = 1684
traniter = 0
tranpoints = 0
accept = 0
rejected = 0
matrix size = 26
fillins = 6
solver = Normal
Matrix Compiler1: 1.22 KB object code size
Matrix Compiler2: 1.80 KB object code size  0.4/0.5/[0.2]

